Frequency (GHz)	DB(|S(1,1)|) : 6PORT ORIGINAL CRLH N8	DB(|S(2,1)|) : 6PORT ORIGINAL CRLH N8	DB(|S(3,1)|) : 6PORT ORIGINAL CRLH N8	DB(|S(4,1)|) : 6PORT ORIGINAL CRLH N8	DB(|S(5,1)|) : 6PORT ORIGINAL CRLH N8	DB(|S(6,1)|) : 6PORT ORIGINAL CRLH N8
0.5	-3.63372	-9.32721	-9.49746	-9.54117	-9.50267	-9.40964
0.51	-4.52876	-8.35646	-9.31359	-9.24769	-8.93963	-8.60633
0.52	-5.91689	-7.81861	-9.2998	-8.63872	-8.09726	-7.71032
0.53	-8.43865	-7.54855	-9.66929	-7.90505	-7.14688	-6.61364
0.54	-12.571	-7.69972	-11.2624	-7.50572	-6.36725	-5.35135
0.55	-12.1027	-7.90553	-15.5624	-8.03809	-6.17006	-4.55964
0.56	-8.88005	-7.52435	-21.9972	-9.29867	-6.50129	-4.60795
0.57	-7.15465	-7.12953	-19.1903	-10.5896	-6.95854	-5.04462
0.58	-6.37619	-7.0884	-15.2755	-11.5972	-7.29876	-5.39133
0.59	-6.24143	-7.36457	-12.7347	-12.3117	-7.43083	-5.43257
0.6	-6.70018	-7.87756	-10.8129	-12.8387	-7.35469	-5.16603
0.61	-7.85388	-8.49191	-9.23032	-13.3456	-7.15563	-4.73154
0.62	-9.90872	-8.83527	-7.97192	-14.0029	-7.01035	-4.33251
0.63	-12.7843	-8.5061	-7.13815	-14.8391	-7.13486	-4.12566
0.64	-14.3893	-7.75887	-6.77685	-15.6849	-7.62633	-4.13099
0.65	-12.9254	-7.04988	-6.78169	-16.4143	-8.37847	-4.27295
0.66	-11.1608	-6.46581	-6.97347	-17.0529	-9.20537	-4.46998
0.67	-10.2182	-5.9341	-7.20811	-17.6433	-9.96992	-4.66253
0.68	-10.0942	-5.40063	-7.40353	-18.2	-10.6092	-4.81598
0.69	-10.7819	-4.85038	-7.52615	-18.7351	-11.1207	-4.92456
0.7	-12.4192	-4.29892	-7.57767	-19.2598	-11.56	-5.02069
0.71	-14.5919	-3.80142	-7.59564	-19.719	-12.0688	-5.2028
0.72	-12.8129	-3.49506	-7.67707	-19.7682	-12.9598	-5.70851
0.73	-7.65495	-3.6804	-8.02388	-18.6733	-14.8807	-7.07305
0.74	-3.80241	-4.84443	-8.91956	-16.5512	-18.6033	-10.3888
0.75	-1.77898	-7.37203	-10.4592	-14.7043	-19.4694	-17.4865
0.76	-1.11297	-11.2189	-12.4264	-13.7323	-15.1833	-16.843
0.77	-1.18449	-16.0719	-14.8203	-13.4887	-12.2546	-11.1488
0.78	-1.59626	-19.1184	-18.2276	-13.7822	-10.5621	-8.22279
0.79	-2.18629	-15.9743	-23.9014	-14.5338	-9.60167	-6.54857
0.8	-2.92481	-12.3363	-26.6492	-15.691	-9.09387	-5.5388
0.81	-3.82056	-9.78716	-20.3736	-17.1525	-8.84658	-4.93201
0.82	-4.85568	-8.08291	-16.5564	-18.7637	-8.72039	-4.58497
0.83	-5.95918	-6.96635	-14.2868	-20.3663	-8.63513	-4.41319
0.84	-7.01091	-6.25425	-12.8246	-21.8479	-8.55894	-4.36518
0.85	-7.87228	-5.82026	-11.8192	-23.1598	-8.48304	-4.40616
0.86	-8.44561	-5.57747	-11.0838	-24.3039	-8.40368	-4.5092
0.87	-8.72706	-5.46552	-10.5103	-25.3065	-8.31573	-4.65187
0.88	-8.79883	-5.44203	-10.0328	-26.1988	-8.21274	-4.81547
0.89	-8.77263	-5.47701	-9.6101	-27.0076	-8.08858	-4.98486
0.9	-8.74411	-5.54917	-9.21641	-27.7539	-7.93881	-5.14829
0.91	-8.78112	-5.64336	-8.83637	-28.4547	-7.76149	-5.29702
0.92	-8.9312	-5.74875	-8.46211	-29.1247	-7.55754	-5.42503
0.93	-9.23311	-5.85743	-8.0915	-29.7785	-7.33085	-5.52862
0.94	-9.72711	-5.96341	-7.72719	-30.4316	-7.08836	-5.6063
0.95	-10.4644	-6.06187	-7.37584	-31.1005	-6.83994	-5.65866
0.96	-11.5187	-6.14866	-7.04744	-31.8026	-6.59804	-5.68828
0.97	-13.0066	-6.2201	-6.75437	-32.5549	-6.37701	-5.69944
0.98	-15.1336	-6.27312	-6.50997	-33.3712	-6.1918	-5.69761
0.99	-18.3292	-6.30564	-6.3267	-34.2592	-6.05617	-5.68849
1	-23.7805	-6.31707	-6.21399	-35.2158	-5.98066	-5.67694
1.01	-33.4648	-6.30838	-6.17644	-36.2236	-5.9708	-5.666
1.02	-24.3245	-6.28182	-6.21289	-37.2474	-6.02623	-5.65651
1.03	-18.8444	-6.24024	-6.3167	-38.2326	-6.14098	-5.64727
1.04	-15.7084	-6.18635	-6.47712	-39.1085	-6.30488	-5.63581
1.05	-13.6483	-6.12241	-6.68123	-39.7988	-6.50551	-5.61919
1.06	-12.2124	-6.05008	-6.9158	-40.2425	-6.73006	-5.59471
1.07	-11.1871	-5.97064	-7.16871	-40.4156	-6.96677	-5.56032
1.08	-10.4536	-5.88515	-7.42974	-40.3376	-7.20571	-5.51479
1.09	-9.938	-5.79466	-7.69094	-40.0588	-7.43913	-5.45771
1.1	-9.59155	-5.70033	-7.94658	-39.6373	-7.66145	-5.38941
1.11	-9.37985	-5.60353	-8.19294	-39.1229	-7.86898	-5.31087
1.12	-9.27707	-5.50593	-8.42808	-38.5516	-8.05974	-5.2236
1.13	-9.2618	-5.40955	-8.65162	-37.9462	-8.23312	-5.12963
1.14	-9.31361	-5.31684	-8.86449	-37.3194	-8.38974	-5.03146
1.15	-9.40968	-5.23079	-9.06889	-36.6775	-8.53123	-4.9321
1.16	-9.52125	-5.15503	-9.26822	-36.0223	-8.66016	-4.8351
1.17	-9.61046	-5.09399	-9.46713	-35.3527	-8.77997	-4.74466
1.18	-9.62914	-5.05306	-9.67163	-34.6661	-8.89499	-4.66573
1.19	-9.52286	-5.03888	-9.88933	-33.9588	-9.01048	-4.60415
1.2	-9.24262	-5.05957	-10.1298	-33.2266	-9.13271	-4.56686
1.21	-8.76175	-5.12516	-10.4049	-32.4662	-9.26912	-4.56216
1.22	-8.08795	-5.24806	-10.7297	-31.6754	-9.42849	-4.59998
1.23	-7.26088	-5.44374	-11.1231	-30.8552	-9.62124	-4.69229
1.24	-6.33729	-5.73164	-11.6091	-30.0108	-9.85987	-4.85365
1.25	-5.37476	-6.13645	-12.2188	-29.1532	-10.1596	-5.10192
1.26	-4.42209	-6.6902	-12.9936	-28.2996	-10.5392	-5.45937
1.27	-3.51678	-7.43562	-13.9902	-27.4731	-11.0226	-5.95434
1.28	-2.68632	-8.43255	-15.2914	-26.7014	-11.6411	-6.62401
1.29	-1.95068	-9.77082	-17.0302	-26.0138	-12.4367	-7.51931
1.3	-1.32439	-11.6001	-19.4508	-25.4387	-13.4682	-8.71421
1.31	-0.818065	-14.2102	-23.1125	-25.0002	-14.8224	-10.3259
1.32	-0.439256	-18.3192	-29.9583	-24.7159	-16.6398	-12.5644
1.33	-0.192894	-26.9391	-40.6316	-24.5961	-19.1806	-15.886
1.34	-0.0814462	-29.0804	-26.5962	-24.6435	-23.0464	-21.6992
1.35	-0.104911	-19.0366	-21.4814	-24.8536	-30.3028	-41.5129
1.36	-0.26077	-14.6107	-18.4158	-25.2159	-35.7067	-22.2115
1.37	-0.544	-11.8502	-16.2955	-25.7151	-25.4454	-16.3042
1.38	-0.94721	-9.92401	-14.7309	-26.3322	-20.841	-13.0119
1.39	-1.46089	-8.51077	-13.5362	-27.0453	-18.0261	-10.8239
1.4	-2.07368	-7.44871	-12.6058	-27.8307	-16.0827	-9.26125
1.41	-2.77256	-6.64255	-11.8727	-28.6641	-14.6596	-8.10541
1.42	-3.54286	-6.02998	-11.2904	-29.5216	-13.5818	-7.23548
1.43	-4.36789	-5.5672	-10.8253	-30.381	-12.7475	-6.57598
1.44	-5.22832	-5.22193	-10.4519	-31.223	-12.0913	-6.07587
1.45	-6.10139	-4.96955	-10.1503	-32.0323	-11.568	-5.69868
1.46	-6.96026	-4.79092	-9.90475	-32.7984	-11.1452	-5.41738
1.47	-7.77418	-4.67092	-9.70274	-33.5156	-10.7987	-5.21146
1.48	-8.51035	-4.5975	-9.53415	-34.1828	-10.5102	-5.06506
1.49	-9.13809	-4.56102	-9.39081	-34.8025	-10.2656	-4.96579
1.5	-9.63466	-4.55369	-9.26608	-35.3801	-10.054	-4.90386
1.51	-9.99077	-4.56922	-9.15459	-35.9224	-9.86684	-4.8715
1.52	-10.2127	-4.6025	-9.05197	-36.4368	-9.69728	-4.86249
1.53	-10.3199	-4.64939	-8.95468	-36.9308	-9.54005	-4.87186
1.54	-10.3392	-4.70651	-8.85989	-37.4117	-9.39096	-4.89561
1.55	-10.2991	-4.77112	-8.76531	-37.8863	-9.24675	-4.93048
1.56	-10.2251	-4.84098	-8.66915	-38.3607	-9.10486	-4.97386
1.57	-10.1382	-4.91425	-8.57003	-38.8411	-8.96335	-5.02361
1.58	-10.0544	-4.98946	-8.46693	-39.3332	-8.82074	-5.07799
1.59	-9.98567	-5.0654	-8.35912	-39.8427	-8.67599	-5.13557
1.6	-9.94094	-5.1411	-8.24616	-40.3758	-8.52843	-5.19516
1.61	-9.92684	-5.21577	-8.12786	-40.9387	-8.37766	-5.2558
1.62	-9.94869	-5.28882	-8.00429	-41.5387	-8.22361	-5.31666
1.63	-10.0111	-5.35974	-7.8757	-42.1836	-8.06645	-5.37704
1.64	-10.1185	-5.42817	-7.74259	-42.8827	-7.90658	-5.43634
1.65	-10.2756	-5.49384	-7.60567	-43.6466	-7.74465	-5.49403
1.66	-10.4875	-5.55652	-7.46584	-44.488	-7.58153	-5.54964
1.67	-10.7603	-5.61608	-7.32422	-45.4218	-7.4183	-5.60275
1.68	-11.1016	-5.6724	-7.18211	-46.4656	-7.25627	-5.65295
1.69	-11.5204	-5.72538	-7.04101	-47.6399	-7.0969	-5.69989
1.7	-12.0285	-5.77494	-6.90258	-48.9669	-6.94185	-5.74324
1.71	-12.6408	-5.82095	-6.76862	-50.4661	-6.79294	-5.78271
1.72	-13.3771	-5.8633	-6.64106	-52.1388	-6.65207	-5.81805
1.73	-14.2643	-5.90179	-6.52184	-53.9218	-6.52122	-5.84905
1.74	-15.3406	-5.9362	-6.41296	-55.5794	-6.40238	-5.87559
1.75	-16.663	-5.96625	-6.3163	-56.598	-6.29746	-5.89759
1.76	-18.323	-5.99165	-6.23364	-56.5035	-6.20823	-5.91503
1.77	-20.4835	-6.01209	-6.16651	-55.4927	-6.13625	-5.92796
1.78	-23.481	-6.02729	-6.11617	-54.1293	-6.08281	-5.93645
1.79	-28.228	-6.03701	-6.08351	-52.7599	-6.04881	-5.94061
1.8	-39.7386	-6.04112	-6.06903	-51.4937	-6.03476	-5.94054
1.81	-34.825	-6.0396	-6.07278	-50.3363	-6.04077	-5.93635
1.82	-26.7053	-6.03254	-6.09441	-49.2628	-6.0665	-5.92812
1.83	-22.6615	-6.02015	-6.13316	-48.246	-6.11121	-5.91592
1.84	-19.9945	-6.0027	-6.1879	-47.2656	-6.17382	-5.89982
1.85	-18.0386	-5.98057	-6.25721	-46.3103	-6.25295	-5.87989
1.86	-16.5233	-5.95412	-6.33945	-45.3767	-6.34698	-5.85623
1.87	-15.3111	-5.92373	-6.43284	-44.4662	-6.45417	-5.82894
1.88	-14.322	-5.88974	-6.5355	-43.5829	-6.5727	-5.79819
1.89	-13.5049	-5.85245	-6.64556	-42.731	-6.70073	-5.76417
1.9	-12.8252	-5.81211	-6.7612	-41.914	-6.83648	-5.72712
1.91	-12.2581	-5.76891	-6.88069	-41.1338	-6.97828	-5.6873
1.92	-11.7853	-5.72301	-7.00241	-40.3912	-7.12454	-5.64501
1.93	-11.3927	-5.67452	-7.12489	-39.6856	-7.27387	-5.60056
1.94	-11.0693	-5.62354	-7.24683	-39.0156	-7.425	-5.55428
1.95	-10.8066	-5.57013	-7.36708	-38.3791	-7.57685	-5.50649
1.96	-10.5974	-5.51438	-7.48466	-37.7737	-7.7285	-5.45754
1.97	-10.4361	-5.45637	-7.59873	-37.1968	-7.87918	-5.40778
1.98	-10.3178	-5.39619	-7.70862	-36.6459	-8.0283	-5.35755
1.99	-10.2386	-5.33395	-7.81379	-36.1185	-8.17541	-5.30723
2	-10.1949	-5.26981	-7.91384	-35.6121	-8.32019	-5.25719
2.01	-10.1836	-5.20393	-8.00849	-35.1244	-8.46248	-5.20784
2.02	-10.2016	-5.13654	-8.09757	-34.6534	-8.60224	-5.15961
2.03	-10.2458	-5.06788	-8.18102	-34.197	-8.73957	-5.11297
2.04	-10.313	-4.99827	-8.25891	-33.7534	-8.87471	-5.06843
2.05	-10.3991	-4.92807	-8.33136	-33.3208	-9.008	-5.02659
2.06	-10.4993	-4.85769	-8.39863	-32.8974	-9.13997	-4.98809
2.07	-10.6075	-4.78764	-8.46106	-32.4817	-9.27128	-4.95368
2.08	-10.7159	-4.71848	-8.51909	-32.0717	-9.40276	-4.92422
2.09	-10.8146	-4.65089	-8.57325	-31.6655	-9.53544	-4.90069
2.1	-10.8913	-4.58564	-8.62421	-31.2612	-9.67058	-4.88424
2.11	-10.9315	-4.52364	-8.67271	-30.8563	-9.80971	-4.87622
2.12	-10.9189	-4.46593	-8.71965	-30.4482	-9.95464	-4.87819
2.13	-10.8368	-4.41374	-8.76606	-30.0337	-10.1076	-4.89202
2.14	-10.6705	-4.36849	-8.8131	-29.6092	-10.2712	-4.9199
2.15	-10.4093	-4.33185	-8.86213	-29.1709	-10.4487	-4.96446
2.16	-10.0495	-4.30576	-8.9147	-28.7141	-10.644	-5.02882
2.17	-9.59437	-4.29253	-8.97258	-28.2342	-10.8617	-5.11673
2.18	-9.05463	-4.29484	-9.03781	-27.7263	-11.1078	-5.23271
2.19	-8.44576	-4.31585	-9.1127	-27.1861	-11.3891	-5.38224
2.2	-7.78584	-4.35928	-9.19992	-26.6099	-11.7146	-5.57195
2.21	-7.09328	-4.42949	-9.30249	-25.9955	-12.095	-5.80996
2.22	-6.38532	-4.53158	-9.42383	-25.3425	-12.5439	-6.10627
2.23	-5.6773	-4.67154	-9.56779	-24.6529	-13.0786	-6.47325
2.24	-4.98254	-4.85629	-9.73867	-23.9313	-13.7214	-6.9264
2.25	-4.31252	-5.09382	-9.94114	-23.1845	-14.5013	-7.48541
2.26	-3.67719	-5.39329	-10.1802	-22.4217	-15.4572	-8.17581
2.27	-3.08523	-5.76511	-10.4611	-21.6534	-16.6423	-9.03164
2.28	-2.54425	-6.22102	-10.7891	-20.8911	-18.1298	-10.1001
2.29	-2.06083	-6.77423	-11.1693	-20.1462	-20.0145	-11.4501
2.3	-1.64043	-7.43964	-11.606	-19.4297	-22.3701	-13.1896
2.31	-1.28725	-8.23426	-12.1031	-18.7511	-24.9121	-15.5021
2.32	-1.00406	-9.17798	-12.6634	-18.1184	-25.9012	-18.7204
2.33	-0.792012	-10.2948	-13.2888	-17.5373	-23.9479	-23.2667
2.34	-0.650677	-11.6145	-13.9802	-17.0117	-21.1438	-25.8314
2.35	-0.578063	-13.1743	-14.7381	-16.5434	-18.704	-21.3974
2.36	-0.570847	-15.0169	-15.5631	-16.1324	-16.7329	-17.3732
2.37	-0.624658	-17.1677	-16.4567	-15.7774	-15.1403	-14.5468
2.38	-0.734408	-19.5251	-17.4221	-15.4762	-13.8387	-12.467
2.39	-0.894626	-21.4963	-18.4645	-15.226	-12.7632	-10.8677
2.4	-1.09973	-21.8301	-19.5906	-15.0239	-11.8665	-9.6003
2.41	-1.34423	-20.4141	-20.8065	-14.8669	-11.1144	-8.57514
2.42	-1.62291	-18.4863	-22.1096	-14.7523	-10.4808	-7.7343
2.43	-1.93085	-16.7111	-23.4698	-14.6778	-9.94594	-7.03813
2.44	-2.26347	-15.2097	-24.7892	-14.6411	-9.49428	-6.45827
2.45	-2.61651	-13.9549	-25.8442	-14.6401	-9.11339	-5.97377
2.46	-2.98599	-12.8988	-26.3023	-14.6726	-8.79313	-5.56868
2.47	-3.36812	-12.0002	-25.9644	-14.7363	-8.52503	-5.2306
2.48	-3.75921	-11.2275	-24.9967	-14.8289	-8.30185	-4.94971
2.49	-4.15557	-10.557	-23.7414	-14.9472	-8.11729	-4.71806
2.5	-4.55341	-9.9715	-22.4479	-15.088	-7.96577	-4.52912
2.51	-4.94873	-9.45776	-21.2327	-15.2476	-7.84231	-4.37743
2.52	-5.33725	-9.00583	-20.1344	-15.4221	-7.74244	-4.25837
2.53	-5.71438	-8.60789	-19.1576	-15.6074	-7.6622	-4.16797
2.54	-6.07529	-8.25765	-18.294	-15.7994	-7.59809	-4.10281
2.55	-6.41496	-7.94987	-17.5317	-15.9942	-7.54705	-4.0599
2.56	-6.72846	-7.68008	-16.858	-16.1881	-7.5065	-4.03663
2.57	-7.01117	-7.44439	-16.2614	-16.3781	-7.47424	-4.03068
2.58	-7.25914	-7.23933	-15.7312	-16.5614	-7.44844	-4.04002
2.59	-7.46939	-7.06179	-15.2583	-16.7358	-7.4276	-4.06284
2.6	-7.64018	-6.90898	-14.8346	-16.8998	-7.4105	-4.0975
2.61	-7.77118	-6.77838	-14.4533	-17.0521	-7.39614	-4.14255
2.62	-7.86346	-6.66772	-14.1081	-17.1919	-7.38371	-4.19666
2.63	-7.91939	-6.57497	-13.7941	-17.3189	-7.37254	-4.25862
2.64	-7.94239	-6.49828	-13.5065	-17.433	-7.36211	-4.32729
2.65	-7.93662	-6.43602	-13.2416	-17.5342	-7.35194	-4.40164
2.66	-7.90664	-6.38673	-12.9959	-17.6229	-7.34165	-4.48069
2.67	-7.85711	-6.34912	-12.7665	-17.6995	-7.33093	-4.56348
2.68	-7.79259	-6.32202	-12.551	-17.7645	-7.31949	-4.64913
2.69	-7.71731	-6.30444	-12.3472	-17.8185	-7.30707	-4.73676
2.7	-7.63511	-6.29546	-12.1531	-17.8619	-7.29348	-4.82552
2.71	-7.54937	-6.29429	-11.9672	-17.8955	-7.27852	-4.91457
2.72	-7.46303	-6.30026	-11.7879	-17.9197	-7.26204	-5.00311
2.73	-7.37859	-6.31276	-11.6142	-17.9353	-7.2439	-5.0903
2.74	-7.29816	-6.33125	-11.4449	-17.9427	-7.22399	-5.17534
2.75	-7.22352	-6.3553	-11.2791	-17.9425	-7.20222	-5.25743
2.76	-7.15617	-6.38451	-11.1161	-17.9353	-7.17853	-5.33577
2.77	-7.09739	-6.41854	-10.9551	-17.9216	-7.15288	-5.40958
2.78	-7.04826	-6.4571	-10.7957	-17.902	-7.12527	-5.47811
2.79	-7.00974	-6.49995	-10.6374	-17.877	-7.0957	-5.54061
2.8	-6.98268	-6.54685	-10.4798	-17.8471	-7.06423	-5.59638
2.81	-6.96786	-6.59762	-10.3226	-17.813	-7.03093	-5.64477
2.82	-6.96602	-6.65206	-10.1656	-17.7752	-6.99589	-5.68518
2.83	-6.97791	-6.70999	-10.0087	-17.7342	-6.95927	-5.7171
2.84	-7.00424	-6.77123	-9.85169	-17.6907	-6.92123	-5.74011
2.85	-7.04578	-6.83556	-9.69464	-17.6453	-6.88198	-5.75387
2.86	-7.10333	-6.90273	-9.53756	-17.5986	-6.84178	-5.75819
2.87	-7.17775	-6.97244	-9.38058	-17.5512	-6.80092	-5.75299
2.88	-7.26996	-7.04433	-9.22383	-17.5039	-6.75973	-5.73834
2.89	-7.38095	-7.11793	-9.06755	-17.4573	-6.7186	-5.71446
2.9	-7.51184	-7.19269	-8.91201	-17.4121	-6.67796	-5.68171
2.91	-7.66379	-7.26791	-8.75755	-17.3688	-6.63829	-5.6406
2.92	-7.83813	-7.34277	-8.60455	-17.3282	-6.60014	-5.59178
2.93	-8.03625	-7.4163	-8.45345	-17.2908	-6.56408	-5.53603
2.94	-8.25968	-7.48735	-8.30474	-17.2571	-6.53076	-5.47423
2.95	-8.51007	-7.55466	-8.15898	-17.2276	-6.50088	-5.40734
2.96	-8.78917	-7.61681	-8.01674	-17.2025	-6.47518	-5.33639
2.97	-9.09882	-7.6723	-7.87866	-17.1821	-6.45446	-5.26245
2.98	-9.44091	-7.71963	-7.74538	-17.1663	-6.43954	-5.18658
2.99	-9.81735	-7.7573	-7.61758	-17.1549	-6.43127	-5.10982
3	-10.23	-7.78397	-7.49595	-17.1476	-6.43052	-5.03316
